 ****** HSPICE -- Q-2020.03-SP1 win64 (May 27 2020) ******                      
  Copyright (c) 1986 - 2023 by Synopsys, Inc. All Rights Reserved.              
  This software and the associated documentation are proprietary
  to Synopsys, Inc. This software may only be used in accordance
  with the terms and conditions of a written license agreement with
  Synopsys, Inc. All other use, reproduction, or distribution of
  this software is strictly prohibited.
  Input File: project.sp                                                        
  Command line options: C:\synopsys\Hspice_Q-2020.03-SP1\WIN64\hspice.com -i project.sp -o F:\A_Univercity\Term_9\ELE_3\Project\Phase_2\V1\project.lis -mt 4
  Start time: Wed Feb  1 00:53:20 2023
  lic:  
  lic: FLEXlm: SDK_12.6 
  lic: USER:   smsaj                HOSTNAME: sajadi 
  lic: HOSTID: "00155d750100"       PID:      10172 
  lic: Using FLEXlm license file: 
  lic: 27000@sajadi 
  lic: Checkout 2 hspice 
  lic: License/Maintenance for hspice will expire on 30-dec-2030/2020.12 
  lic: 2(in_use)/99(total) FLOATING license(s) on SERVER 27000@sajadi 
  lic:   
 **warning** the ratio of tstop to tstep is unduly large, transient analysis will continue with larger step. 
             ratio under le9 is recommended and the new step is 1/10e8 of tstop.
  **info** (project.sp:53) DC voltage reset to initial transient source value in source 0:vin. new dc=0.5000D+00
  
      
 *****************************************************************
 ******  option summary
 ******
 runlvl  = 3         bypass  = 2.0000    
  lic: Checkin 1 hspice token(s) 
 **info** dc convergence successful at Newton-Raphson method 
1****** HSPICE -- Q-2020.03-SP1 win64 (May 27 2020) ******                      
 ******  
 *********//devices//*********

 ****** operating point information tnom=  25.000 temp=  25.000 ******
 ****** operating point status is all       simulation time is     0.     
    node    =voltage      node    =voltage      node    =voltage

 +0:1       = 600.3939m 0:2       =   1.1972  0:3       = 250.0000m
 +0:4       =-250.0000m 0:5       =   1.8000  0:6       =  32.3330p
 +0:7       =  32.4947p 0:8       =   1.8000  0:9       =   1.8000 
 +0:10      =   1.8000  0:11      = 447.7612m 0:12      =   1.8000 
 +0:13      =   1.8000  0:14      =   1.8000  0:15      =  32.4947p
 +0:16      =   1.1002  0:17      = 900.0000m 0:18      = 900.0000m
 +0:100     =   1.8000  0:500     = 500.0000m


 **** voltage sources

 subckt                        
 element  0:vdd      0:vin     
  volts      1.8000   500.0000m
  current -314.5839u    0.     
  power    566.2509u    0.     

     total voltage source power dissipation=  566.2509u       watts



 **** resistors

 subckt                                                                    
 element  0:rref     0:r2       0:r3       0:r4       0:r5       0:r6      
  r value   24.3000k   10.0000k   10.0000k   10.0000k    6.3600k   10.0000k
  v drop   596.7929m  900.0000m  900.0000m    1.1002   699.7555m  900.0000m
  current   24.5594u   90.0000u   90.0000u  110.0244u  110.0244u   90.0000u
  power     14.6569u   81.0000u   81.0000u  121.0538u   76.9902u   81.0000u

 subckt             
 element  0:r7      
  r value   10.0000k
  v drop   900.0000m
  current   90.0000u
  power     81.0000u


 **** voltage-controlled voltage sources


 subckt                        
 element  0:e1       0:e2      
  volts    250.0000m -250.0000m
  current    0.         0.     





 **** mosfets


 subckt                                                                    
 element  0:m1       0:m2       0:m3       0:m4       0:m5       0:m6      
 model    0:nmos     0:nmos     0:pmos     0:pmos     0:pmos     0:pmos    
 region   Subth      Cutoff     Linear     Linear     Linear     Linear    
  id         0.         0.        -4.9882p   -4.9882p   -1.8181p   -1.8181p
  ibs     -3.233e-25 -3.233e-25  6.403e-24  6.403e-24  3.489e-24  3.489e-24
  ibd      -18.0000f  -18.0000f  8.299e-24  7.645e-24  3.500e-24  3.500e-24
  vgs      250.0000m -250.0000m   -1.5500    -2.0500  -900.0000m -900.0000m
  vds        1.8000     1.8000  -189.6108p -124.2277p   -1.0942p   -1.0942p
  vbs      -32.3330p  -32.3330p  640.2900p  640.2900p  348.8947p  348.8962p
  vth      600.0000m  600.0000m -600.0000m -600.0000m -600.0000m -600.0000m
  vdsat      0.         0.      -189.6108p -124.2277p   -1.0942p   -1.0942p
  vod     -350.0000m -850.0000m -950.0000m   -1.4500  -300.0000m -300.0000m
  beta     692.3077m  692.3077m   27.6923m   27.6923m    5.5385     5.5385 
  gam eff  450.0000m  450.0000m  400.0000m  400.0000m  400.0000m  400.0000m
  gm         0.         0.         5.2508p    3.4402p    6.0604p    6.0604p
  gds        0.         0.        26.3077m   40.1538m    1.6615     1.6615 
  gmb        0.         0.         1.1070p  725.2479f    1.2776p    1.2776p
  cdtot     72.0617a   72.0262a   38.7073a   38.7073a    7.7415f    7.7415f
  cgtot    286.1003a  317.9622a   80.0538a   79.9813a   16.0974f   16.0974f
  cstot    108.5353a   98.6913a   41.1332a   41.1332a    8.2266f    8.2266f
  cbtot    105.5034a  147.2446a  2.133e-19  1.407e-19  129.3098a  129.3098a
  cgs      108.5353a   98.6913a   41.1332a   41.1332a    8.2266f    8.2266f
  cgd       72.0617a   72.0262a   38.7073a   38.7073a    7.7415f    7.7415f



 subckt                                                                    
 element  0:m7       0:m8       0:m9       0:m10      0:m11      0:m12     
 model    0:pmos     0:pmos     0:nmos     0:nmos     0:nmos     0:nmos    
 region   Linear     Linear     Cutoff     Cutoff     Subth      Subth     
  id        -5.4362p   -5.4362p    0.         0.         0.         0.     
  ibs        0.         0.       -18.0000f  -18.0000f   -4.4776f   -4.4776f
  ibd      3.489e-24  3.489e-24  -18.0000f  -18.0000f  -18.0000f  -18.0000f
  vgs     -602.8133m -602.8133m -699.7555m -699.7555m  452.2388m  452.2388m
  vds     -348.8947p -348.8962p  479.9119p  414.5273p    1.3522     1.3522 
  vbs        0.         0.        -1.8000    -1.8000  -447.7612m -447.7612m
  vth     -600.0000m -600.0000m  912.5180m  912.5180m  695.5115m  695.5115m
  vdsat   -348.8947p -348.8962p    0.         0.         0.         0.     
  vod       -2.8133m   -2.8133m   -1.6123    -1.6123  -243.2727m -243.2727m
  beta       5.5385     5.5385     2.7692     2.7692     2.7692     2.7692 
  gam eff  400.0000m  400.0000m  450.0000m  450.0000m  450.0000m  450.0000m
  gm         1.9323n    1.9323n    0.         0.         0.         0.     
  gds       15.5812m   15.5812m    0.         0.         0.         0.     
  gmb      407.3730p  407.3748p    0.         0.         0.         0.     
  cdtot      2.8729f    2.8729f  289.8271a  289.8271a  288.2604a  288.2604a
  cgtot      8.4222f    8.4222f  970.2204a  970.2204a    1.0805f    1.0805f
  cstot      3.7355f    3.7355f  368.2154a  368.2154a  461.9160a  461.9160a
  cbtot      1.8138f    1.8138f  312.1779a  312.1779a  330.2848a  330.2848a
  cgs        3.7355f    3.7355f  368.2154a  368.2154a  461.9160a  461.9160a
  cgd        2.8729f    2.8729f  289.8271a  289.8271a  288.2604a  288.2604a



 subckt                                                                    
 element  0:m13      0:m14      0:m15      0:m16      0:m17      0:m18     
 model    0:pmos     0:pmos     0:nmos     0:nmos     0:pmos     0:pmos    
 region   Cutoff     Cutoff     Saturation Linear     Saturation Linear    
  id         0.         0.        24.5594u    3.6000p  -24.5594u   -9.9765p
  ibs        0.         0.         0.         0.         0.         0.     
  ibd       18.0000f   18.0000f   -6.0039f -3.233e-25    6.0281f  6.403e-24
  vgs     -349.9889p -349.9905p  600.3939m  600.3939m -602.8133m -602.8133m
  vds       -1.8000    -1.8000   600.3939m   32.3330p -602.8133m -640.2900p
  vbs        0.         0.         0.         0.         0.         0.     
  vth     -600.0000m -600.0000m  600.0000m  600.0000m -600.0000m -600.0000m
  vdsat      0.         0.       393.8605u   32.3330p   -2.8133m -640.2900p
  vod      600.0000m  600.0000m  393.8605u  393.8605u   -2.8133m   -2.8133m
  beta     153.8462m  153.8462m  316.6377   282.6923     6.2062     5.5385 
  gam eff  400.0000m  400.0000m  450.0000m  450.0000m  400.0000m  400.0000m
  gm         0.         0.       124.7111m    9.1403n   17.4597m    3.5462n
  gds        0.         0.         4.3853u  111.3413m    4.3834u   15.5812m
  gmb        0.         0.        29.5778m    2.1678n    3.6808m  747.6092p
  cdtot     50.0256a   50.0256a   29.5554f   44.9448f    1.8096f    2.8729f
  cgtot    198.4300a  198.4300a  232.7605f  140.6206f   13.8305f    8.4222f
  cstot     70.5754a   70.5754a  166.7164f   59.1870f   10.2071f    3.7355f
  cbtot     77.8291a   77.8291a   36.4887f   36.4887f    1.8138f    1.8138f
  cgs       70.5754a   70.5754a  166.7164f   59.1870f   10.2071f    3.7355f
  cgd       50.0256a   50.0256a   29.5554f   44.9448f    1.8096f    2.8729f



 subckt                                              
 element  0:m19      0:m20      0:m21      0:m22     
 model    0:nmos     0:nmos     0:nmos     0:nmos    
 region   Linear     Linear     Cutoff     Cutoff    
  id         3.6180p    3.6180p    0.         0.     
  ibs        0.         0.         0.         0.     
  ibd     -3.249e-25 -3.249e-25   -4.4776f   -4.4776f
  vgs      600.3939m  600.3939m   32.4947p   32.4947p
  vds       32.4947p   32.4947p  447.7612m  447.7612m
  vbs        0.         0.         0.         0.     
  vth      600.0000m  600.0000m  600.0000m  600.0000m
  vdsat     32.4947p   32.4947p    0.         0.     
  vod      393.8605u  393.8605u -600.0000m -600.0000m
  beta     282.6923   282.6923   346.1538m  346.1538m
  gam eff  450.0000m  450.0000m  450.0000m  450.0000m
  gm         9.1860n    9.1860n    0.         0.     
  gds      111.3413m  111.3413m    0.         0.     
  gmb        2.1786n    2.1786n    0.         0.     
  cdtot     44.9448f   44.9448f   36.0046a   36.0046a
  cgtot    140.6206f  140.6206f  147.4611a  147.4611a
  cstot     59.1870f   59.1870f   50.8143a   50.8143a
  cbtot     36.4887f   36.4887f   60.6422a   60.6422a
  cgs       59.1870f   59.1870f   50.8143a   50.8143a
  cgd       44.9448f   44.9448f   36.0046a   36.0046a




          ***** job concluded
 ******  
 *********//devices//*********

 ****** job statistics summary tnom=  25.000 temp=  25.000 ******

  ******  HSPICE Threads Information  ******

  Command Line Threads Count :     4
  Available CPU Count        :    16
  Actual Threads Count       :     1


  ******  Circuit Statistics  ******
  # nodes       =      21 # elements   =      33
  # resistors   =       7 # capacitors =       0 # inductors   =       0
  # mutual_inds =       0 # vccs       =       0 # vcvs        =       2
  # cccs        =       0 # ccvs       =       0 # volt_srcs   =       2
  # curr_srcs   =       0 # diodes     =       0 # bjts        =       0
  # jfets       =       0 # mosfets    =      22 # U elements  =       0
  # T elements  =       0 # W elements =       0 # B elements  =       0
  # S elements  =       0 # P elements =       0 # va device   =       0
  # vector_srcs =       0 # N elements =       0


  ******  Runtime Statistics (seconds)  ******

  analysis           time    # points   tot. iter  conv.iter
  op point           0.00           1          29
  ac analysis        0.01        1301        1301
  transient          0.00 1.00000E+09         354         177 rev=         0
  readin             0.01
  errchk             0.00
  setup              0.00
  output             0.00


           peak memory used         75.46 megabytes
           total cpu time            0.03 seconds
           total elapsed time        3.69 seconds
           job started at     00:53:20 02/01/2023
           job ended   at     00:53:24 02/01/2023
           job total runtime         3.69 seconds


  lic: Release hspice token(s) 
 lic: total license checkout elapse time:        3.62(s)
