 ****** HSPICE -- Q-2020.03-SP1 win64 (May 27 2020) ******                      
  Copyright (c) 1986 - 2023 by Synopsys, Inc. All Rights Reserved.              
  This software and the associated documentation are proprietary
  to Synopsys, Inc. This software may only be used in accordance
  with the terms and conditions of a written license agreement with
  Synopsys, Inc. All other use, reproduction, or distribution of
  this software is strictly prohibited.
  Input File: project.sp                                                        
  Command line options: C:\synopsys\Hspice_Q-2020.03-SP1\WIN64\hspice.com -i project.sp -o F:\A_Univercity\Term_9\ELE_3\Project\Phase_2\V2\project.lis -mt 4
  Start time: Wed Feb  1 19:02:50 2023
  lic:  
  lic: FLEXlm: SDK_12.6 
  lic: USER:   smsaj                HOSTNAME: sajadi 
  lic: HOSTID: "00155d750100"       PID:      18712 
  lic: Using FLEXlm license file: 
  lic: 27000@sajadi 
  lic: Checkout 2 hspice 
  lic: License/Maintenance for hspice will expire on 30-dec-2030/2020.12 
  lic: 2(in_use)/99(total) FLOATING license(s) on SERVER 27000@sajadi 
  lic:   
 **warning** the ratio of tstop to tstep is unduly large, transient analysis will continue with larger step. 
             ratio under le9 is recommended and the new step is 1/10e8 of tstop.
  **info** (project.sp:54) DC voltage reset to initial transient source value in source 0:vin. new dc=0.7140D+00
  
      
 *****************************************************************
 ******  option summary
 ******
 runlvl  = 3         bypass  = 2.0000    
  lic: Checkin 1 hspice token(s) 
 **info** dc convergence successful at GMINDC ramping method 
1****** HSPICE -- Q-2020.03-SP1 win64 (May 27 2020) ******                      
 ******  
 *********//devices//*********

 ****** operating point information tnom=  25.000 temp=  25.000 ******
 ****** operating point status is all       simulation time is     0.     
    node    =voltage      node    =voltage      node    =voltage

 +0:1       = 600.3939m 0:2       =   1.1972  0:3       = 714.0000m
 +0:4       = 714.0000m 0:5       =   1.3985  0:6       =  92.2947m
 +0:7       = 906.8089m 0:8       =   1.5512  0:10      = 409.4270m
 +0:11      = 184.4945m 0:12      = 409.4270m 0:14      =   1.5512 
 +0:15      = 906.8090m 0:16      =   1.1002  0:17      = 830.2583m
 +0:18      = 900.0000m 0:100     =   1.8000 


 **** voltage sources

 subckt                                   
 element  0:vdd      0:vin      0:vin1    
  volts      1.8000   714.0000m  714.0000m
  current -377.3018u    0.         0.     
  power    679.1432u    0.         0.     

     total voltage source power dissipation=  679.1432u       watts



 **** resistors

 subckt                                                                    
 element  0:rref     0:r2       0:r3       0:r4       0:r5       0:r6      
  r value   24.3000k   10.0000k   10.0000k   10.0000k    6.3600k   10.0000k
  v drop   596.7929m  900.0000m  900.0000m    1.1002   699.7555m  830.2583m
  current   24.5594u   90.0000u   90.0000u  110.0244u  110.0244u   83.0258u
  power     14.6569u   81.0000u   81.0000u  121.0538u   76.9902u   68.9329u

 subckt             
 element  0:r7      
  r value   11.6800k
  v drop   969.7417m
  current   83.0258u
  power     80.5136u



 **** mosfets


 subckt                                                                    
 element  0:m1       0:m2       0:m3       0:m4       0:m5       0:m6      
 model    0:nmos     0:nmos     0:pmos     0:pmos     0:pmos     0:pmos    
 region   Saturation Saturation Saturation Saturation Saturation Saturation
  id        11.1656u   11.1656u  -11.8385u  -11.8385u  -11.8420u  -11.8420u
  ibs     -922.9473a -922.9473a    4.0150f    4.0150f    2.4880f    2.4880f
  ibd      -15.5120f  -15.5120f   13.9057f   13.9057f    8.9319f    8.9319f
  vgs      621.7053m  621.7053m -684.5017m -684.5017m -651.2011m -651.2011m
  vds        1.4589     1.4589  -989.0747m -989.0747m -644.3922m -644.3921m
  vbs      -92.2947m  -92.2947m  401.4983m  401.4983m  248.7989m  248.7989m
  vth      621.3555m  621.3555m -676.8596m -676.8596m -649.2548m -649.2548m
  vdsat    349.7931u  349.7931u   -7.6421m   -7.6421m   -1.9463m   -1.9463m
  vod      349.7931u  349.7931u   -7.6421m   -7.6421m   -1.9463m   -1.9463m
  beta     182.5113   182.5113   405.4143m  405.4143m    6.2522     6.2522 
  gam eff  450.0000m  450.0000m  400.0000m  400.0000m  400.0000m  400.0000m
  gm        63.8412m   63.8412m    3.0982m    3.0982m   12.1687m   12.1687m
  gds        1.7287u    1.7287u    1.9767u    1.9767u    2.0980u    2.0980u
  gmb       14.4199m   14.4199m  543.1508u  543.1508u    2.2707m    2.2707m
  cdtot     14.8825f   14.8825f  110.9577a  110.9577a    1.8102f    1.8102f
  cgtot    115.7714f  115.7714f  813.0976a  813.0976a   13.7203f   13.7203f
  cstot     83.3230f   83.3230f  623.7688a  623.7688a   10.2071f   10.2071f
  cbtot     17.5659f   17.5659f   78.3711a   78.3711a    1.7029f    1.7029f
  cgs       83.3230f   83.3230f  623.7688a  623.7688a   10.2071f   10.2071f
  cgd       14.8825f   14.8825f  110.9577a  110.9577a    1.8102f    1.8102f



 subckt                                                                    
 element  0:m7       0:m8       0:m9       0:m10      0:m11      0:m12     
 model    0:pmos     0:pmos     0:nmos     0:nmos     0:nmos     0:nmos    
 region   Saturation Saturation Saturation Saturation Saturation Saturation
  id       -23.0076u  -23.0076u   11.8420u   11.8420u   23.6804u   23.6804u
  ibs        0.         0.        -4.0943f   -4.0943f   -1.8449f   -1.8449f
  ibd        2.4880f    2.4880f   -9.0681f   -9.0681f   -4.0943f   -4.0943f
  vgs     -602.8133m -602.8133m  690.8175m  690.8175m  645.7638m  645.7638m
  vds     -248.7989m -248.7989m  497.3819m  497.3819m  224.9326m  224.9326m
  vbs        0.         0.      -409.4270m -409.4270m -184.4945m -184.4945m
  vth     -600.0000m -600.0000m  688.0284m  688.0284m  641.7183m  641.7183m
  vdsat     -2.8133m   -2.8133m    2.7890m    2.7890m    4.0455m    4.0455m
  vod       -2.8133m   -2.8133m    2.7890m    2.7890m    4.0455m    4.0455m
  beta       5.8141     5.8141     3.0447     3.0447     2.8938     2.8938 
  gam eff  400.0000m  400.0000m  450.0000m  450.0000m  450.0000m  450.0000m
  gm        16.3565m   16.3565m    8.4918m    8.4918m   11.7070m   11.7070m
  gds        4.3834u    4.3834u    2.1541u    2.1541u    4.5322u    4.5322u
  gmb        3.4483m    3.4483m    1.6697m    1.6697m    2.5294m    2.5294m
  cdtot      1.8039f    1.8039f  289.2609a  289.2609a  288.5702a  288.5702a
  cgtot     13.8249f   13.8249f    2.1966f    2.1966f    2.2027f    2.2027f
  cstot     10.2071f   10.2071f    1.6331f    1.6331f    1.6331f    1.6331f
  cbtot      1.8138f    1.8138f  274.1756a  274.1756a  280.9649a  280.9649a
  cgs       10.2071f   10.2071f    1.6331f    1.6331f    1.6331f    1.6331f
  cgd        1.8039f    1.8039f  289.2609a  289.2609a  288.5702a  288.5702a



 subckt                                                                    
 element  0:m15      0:m16      0:m17      0:m18      0:m21      0:m22     
 model    0:nmos     0:nmos     0:pmos     0:pmos     0:nmos     0:nmos    
 region   Saturation Saturation Saturation Saturation Linear     Linear    
  id        24.5594u   22.3312u  -24.5594u  -23.6769u   23.6804u   23.6805u
  ibs        0.         0.         0.         0.         0.         0.     
  ibd       -6.0039f -922.9473a    6.0281f    4.0150f   -1.8449f   -1.8449f
  vgs      600.3939m  600.3939m -602.8133m -602.8133m  906.8089m  906.8090m
  vds      600.3939m   92.2947m -602.8133m -401.4983m  184.4945m  184.4945m
  vbs        0.         0.         0.         0.         0.         0.     
  vth      600.0000m  600.0000m -600.0000m -600.0000m  600.0000m  600.0000m
  vdsat    393.8605u  393.8605u   -2.8133m   -2.8133m  184.4945m  184.4945m
  vod      393.8605u  393.8605u   -2.8133m   -2.8133m  306.8089m  306.8090m
  beta     316.6377   287.9105     6.2062     5.9832   598.2109u  598.2109u
  gam eff  450.0000m  450.0000m  400.0000m  400.0000m  450.0000m  450.0000m
  gm       124.7111m  113.3966m   17.4597m   16.8323m  110.3666u  110.3666u
  gds        4.3853u    4.3853u    4.3834u    4.3834u   77.7374u   77.7374u
  gmb       29.5778m   26.8944m    3.6808m    3.5486m   26.1757u   26.1757u
  cdtot     29.5554f  111.4029f    1.8096f    1.8064f  1.891e-19  1.891e-19
  cgtot    232.7605f  278.7612f   13.8305f   13.8273f  5.125e-19  5.125e-19
  cstot    166.7164f  130.8696f   10.2071f   10.2071f  3.188e-19  3.188e-19
  cbtot     36.4887f   36.4887f    1.8138f    1.8138f  4.647e-21  4.647e-21
  cgs      166.7164f  130.8696f   10.2071f   10.2071f  3.188e-19  3.188e-19
  cgd       29.5554f  111.4029f    1.8096f    1.8064f  1.891e-19  1.891e-19




          ***** job concluded
 ******  
 *********//devices//*********

 ****** job statistics summary tnom=  25.000 temp=  25.000 ******

  ******  HSPICE Threads Information  ******

  Command Line Threads Count :     4
  Available CPU Count        :    16
  Actual Threads Count       :     1


  ******  Circuit Statistics  ******
  # nodes       =      18 # elements   =      28
  # resistors   =       7 # capacitors =       0 # inductors   =       0
  # mutual_inds =       0 # vccs       =       0 # vcvs        =       0
  # cccs        =       0 # ccvs       =       0 # volt_srcs   =       3
  # curr_srcs   =       0 # diodes     =       0 # bjts        =       0
  # jfets       =       0 # mosfets    =      18 # U elements  =       0
  # T elements  =       0 # W elements =       0 # B elements  =       0
  # S elements  =       0 # P elements =       0 # va device   =       0
  # vector_srcs =       0 # N elements =       0


  ******  Runtime Statistics (seconds)  ******

  analysis           time    # points   tot. iter  conv.iter
  op point           0.01           1         233
  ac analysis        0.01        1301        1301
  transient          0.02 1.00000E+09        2594        1297 rev=        21
  readin             0.01
  errchk             0.00
  setup              0.00
  output             0.00


           peak memory used         69.88 megabytes
           total cpu time            0.04 seconds
           total elapsed time        0.06 seconds
           job started at     19:02:50 02/01/2023
           job ended   at     19:02:50 02/01/2023
           job total runtime         0.06 seconds


  lic: Release hspice token(s) 
 lic: total license checkout elapse time:        0.02(s)
