 ****** HSPICE -- Q-2020.03-SP1 win64 (May 27 2020) ******                      
  Copyright (c) 1986 - 2023 by Synopsys, Inc. All Rights Reserved.              
  This software and the associated documentation are proprietary
  to Synopsys, Inc. This software may only be used in accordance
  with the terms and conditions of a written license agreement with
  Synopsys, Inc. All other use, reproduction, or distribution of
  this software is strictly prohibited.
  Input File: increasing_wl.sp                                                  
  Command line options: C:\synopsys\Hspice_Q-2020.03-SP1\WIN64\hspice.com -i increasing_wl.sp -o F:\A_Univercity\Term_9\ELE_3\Project\Phase_2\V2\tt\increasing_wl.lis -mt 4
  Start time: Wed Feb  1 20:21:35 2023
  lic:  
  lic: FLEXlm: SDK_12.6 
  lic: USER:   smsaj                HOSTNAME: sajadi 
  lic: HOSTID: "00155d750100"       PID:      18196 
  lic: Using FLEXlm license file: 
  lic: 27000@sajadi 
  lic: Checkout 2 hspice 
  lic: License/Maintenance for hspice will expire on 30-dec-2030/2020.12 
  lic: 2(in_use)/99(total) FLOATING license(s) on SERVER 27000@sajadi 
  lic:   
 ac output variable type=vm     not allowed for transient or dc

 **warning** the ratio of tstop to tstep is unduly large, transient analysis will continue with larger step. 
             ratio under le9 is recommended and the new step is 1/10e8 of tstop.
  **info** (increasing_wl.sp:56) DC voltage reset to initial transient source value in source 0:vin. new dc=0.7140D+00
  **warning** (increasing_wl.sp:80) The measured variable for gain is not defined.
  

  **warning** the following singular supplies were terminated to 1 meg resistor 
          supply       node1            node2
(increasing_wl.sp:59)eo                      0:500              defined in subckt 0                     0:0                defined in subckt 0               
      
 *****************************************************************
 ******  option summary
 ******
 runlvl  = 3         bypass  = 2.0000    
  lic: Checkin 1 hspice token(s) 

 **info** although this circuit has failed to converge
 to gmindc=   1.000E-12, it did converge to a gmindc=   9.017E-11

 no convergence with standard algorithm,  trying damped pseudo-transient

 
 **info** number of iteration exceeds min(7000, 20*itl1)= 4000 in pseudo
 tran process (converge=1 process). Usually this happens when the
 models are discontinous, or there are uninitialized bi-stable cells
 (flip-flop) in the circuit. By setting options dcon=-1 and converge=-1
 you can disable auto convergence process. Retry the run, non-convergence
 diagnostics will provide useful information about the nodes and devices
 which can be used to work around the non-convergence problems.

   *** pseudo tran failed *** 
  *** gshunt ramping started *** 
  *** gshunt ramping succeeded *** 
1****** HSPICE -- Q-2020.03-SP1 win64 (May 27 2020) ******                      
 ******  
 *********//devices//*********

 ****** operating point information tnom=  25.000 temp=  25.000 ******
 ****** operating point status is all       simulation time is     0.     
    node    =voltage      node    =voltage      node    =voltage

 +0:1       = 600.3597m 0:2       =   1.1946  0:3       = 714.0000m
 +0:4       = 714.0000m 0:5       =   1.3964  0:6       =  92.3549m
 +0:7       = 875.0336m 0:8       =   1.4513  0:10      = 410.9331m
 +0:11      = 183.4252m 0:12      = 410.9331m 0:14      =   1.4513 
 +0:15      = 875.0336m 0:16      =   1.1002  0:17      = 830.2583m
 +0:18      = 782.6087m 0:100     =   1.8000  0:500     =  13.6625p


 **** voltage sources

 subckt                                   
 element  0:vdd      0:vin      0:vin1    
  volts      1.8000   714.0000m  714.0000m
  current -350.6534u    0.         0.     
  power    631.1762u    0.         0.     

     total voltage source power dissipation=  631.1762u       watts



 **** resistors

 subckt                                                                    
 element  0:rref     0:r2       0:r3       0:r4       0:r5       0:r6      
  r value   29.0000k   10.0000k   13.0000k   10.0000k    6.3600k   10.0000k
  v drop   594.1906m  782.6087m    1.0174     1.1002   699.7555m  830.2583m
  current   20.4893u   78.2609u   78.2609u  110.0244u  110.0244u   83.0258u
  power     12.1746u   61.2476u   79.6219u  121.0538u   76.9902u   68.9329u

 subckt                        
 element  0:r7       0:ro      
  r value   11.6800k   10.0000x
  v drop   969.7417m   13.6625p
  current   83.0258u    1.3663a
  power     80.5136u    0.     


 **** voltage-controlled voltage sources


 subckt             
 element  0:eo      
  volts     13.6625p
  current  -13.6625a





 **** mosfets


 subckt                                                                    
 element  0:m1       0:m2       0:m3       0:m4       0:m5       0:m6      
 model    0:nmos     0:nmos     0:pmos     0:pmos     0:pmos     0:pmos    
 region   Saturation Saturation Saturation Saturation Saturation Saturation
  id         9.3154u    9.3154u   -9.8757u   -9.8757u  -10.2353u  -10.2353u
  ibs     -923.5493a -923.5493a    4.0359f    4.0359f    3.4867f    3.4867f
  ibd      -14.5133f  -14.5133f   13.8907f   13.8907f    9.2497f    9.2497f
  vgs      621.6451m  621.6451m -682.4050m -682.4050m -668.7232m -668.7232m
  vds        1.3590     1.3590  -985.4719m -985.4719m -576.2983m -576.2983m
  vbs      -92.3549m  -92.3549m  403.5950m  403.5950m  348.6681m  348.6681m
  vth      621.3691m  621.3691m -677.2270m -677.2270m -667.5020m -667.5020m
  vdsat    275.9995u  275.9995u   -5.1780m   -5.1780m   -1.2212m   -1.2212m
  vod      275.9995u  275.9995u   -5.1780m   -5.1780m   -1.2212m   -1.2212m
  beta     244.5760   244.5760   736.6735m  736.6735m   13.7263    13.7263 
  gam eff  450.0000m  450.0000m  400.0000m  400.0000m  400.0000m  400.0000m
  gm        67.5029m   67.5029m    3.8145m    3.8145m   16.7626m   16.7626m
  gds        1.4649u    1.4649u    1.6500u    1.6500u    1.8355u    1.8355u
  gmb       15.2465m   15.2465m  668.1842u  668.1842u    3.0002m    3.0002m
  cdtot     20.2392f   20.2392f  201.7349a  201.7349a    4.0203f    4.0203f
  cgtot    157.6474f  157.6474f    1.4922f    1.4922f   30.4809f   30.4809f
  cstot    113.4125f  113.4125f    1.1341f    1.1341f   22.6825f   22.6825f
  cbtot     23.9957f   23.9957f  156.3313a  156.3313a    3.7781f    3.7781f
  cgs      113.4125f  113.4125f    1.1341f    1.1341f   22.6825f   22.6825f
  cgd       20.2392f   20.2392f  201.7349a  201.7349a    4.0203f    4.0203f



 subckt                                                                    
 element  0:m7       0:m8       0:m9       0:m10      0:m11      0:m12     
 model    0:pmos     0:pmos     0:nmos     0:nmos     0:nmos     0:nmos    
 region   Saturation Saturation Saturation Saturation Saturation Saturation
  id       -19.5507u  -19.5507u   10.2353u   10.2353u   20.1111u   20.1111u
  ibs        0.         0.        -4.1093f   -4.1093f   -1.8343f   -1.8343f
  ibd        3.4867f    3.4867f   -8.7503f   -8.7503f   -4.1093f   -4.1093f
  vgs     -605.4497m -605.4497m  689.3114m  689.3114m  646.8331m  646.8331m
  vds     -348.6681m -348.6681m  464.1005m  464.1005m  227.5079m  227.5079m
  vbs        0.         0.      -410.9331m -410.9331m -183.4252m -183.4252m
  vth     -600.0000m -600.0000m  688.3245m  688.3245m  641.4872m  641.4872m
  vdsat     -5.4497m   -5.4497m  986.9466u  986.9466u    5.3459m    5.3459m
  vod       -5.4497m   -5.4497m  986.9466u  986.9466u    5.3459m    5.3459m
  beta       1.3166     1.3166    21.0158    21.0158     1.4074     1.4074 
  gam eff  400.0000m  400.0000m  450.0000m  450.0000m  450.0000m  450.0000m
  gm         7.1750m    7.1750m   20.7414m   20.7414m    7.5239m    7.5239m
  gds        3.6553u    3.6553u    1.8732u    1.8732u    3.8472u    3.8472u
  gmb        1.5126m    1.5126m    4.0760m    4.0760m    1.6264m    1.6264m
  cdtot    401.2276a  401.2276a    2.0082f    2.0082f  140.2804a  140.2804a
  cgtot      3.0308f    3.0308f   15.4159f   15.4159f    1.0638f    1.0638f
  cstot      2.2683f    2.2683f   11.3413f   11.3413f  793.8876a  793.8876a
  cbtot    361.3155a  361.3155a    2.0665f    2.0665f  129.6253a  129.6253a
  cgs        2.2683f    2.2683f   11.3413f   11.3413f  793.8876a  793.8876a
  cgd      401.2276a  401.2276a    2.0082f    2.0082f  140.2804a  140.2804a



 subckt                                                                    
 element  0:m15      0:m16      0:m17      0:m18      0:m21      0:m22     
 model    0:nmos     0:nmos     0:pmos     0:pmos     0:nmos     0:nmos    
 region   Saturation Saturation Saturation Saturation Linear     Linear    
  id        20.4893u   18.6308u  -20.4893u  -19.7515u   20.1111u   20.1111u
  ibs        0.         0.         0.         0.         0.         0.     
  ibd       -6.0036f -923.5493a    6.0545f    4.0359f   -1.8343f   -1.8343f
  vgs      600.3597m  600.3597m -605.4497m -605.4497m  875.0336m  875.0336m
  vds      600.3597m   92.3549m -605.4497m -403.5950m  183.4252m  183.4252m
  vbs        0.         0.         0.         0.         0.         0.     
  vth      600.0000m  600.0000m -600.0000m -600.0000m  600.0000m  600.0000m
  vdsat    359.7484u  359.7484u   -5.4497m   -5.4497m  183.4252m  183.4252m
  vod      359.7484u  359.7484u   -5.4497m   -5.4497m  275.0336m  275.0336m
  beta     316.6357   287.9139     1.3798     1.3301   598.0875u  598.0875u
  gam eff  450.0000m  450.0000m  400.0000m  400.0000m  450.0000m  450.0000m
  gm       113.9092m  103.5766m    7.5195m    7.2487m  109.7043u  109.7043u
  gds        3.6586u    3.6586u    3.6553u    3.6553u   58.6697u   58.6697u
  gmb       27.0159m   24.5653m    1.5852m    1.5282m   26.0187u   26.0187u
  cdtot     29.5554f  111.6382f  402.1317a  401.4210a  1.755e-19  1.755e-19
  cgtot    232.8216f  279.2483f    3.0317f    3.0310f  5.044e-19  5.044e-19
  cstot    166.7164f  131.0602f    2.2683f    2.2683f  3.238e-19  3.238e-19
  cbtot     36.5499f   36.5499f  361.3155a  361.3155a  5.147e-21  5.147e-21
  cgs      166.7164f  131.0602f    2.2683f    2.2683f  3.238e-19  3.238e-19
  cgd       29.5554f  111.6382f  402.1317a  401.4210a  1.755e-19  1.755e-19



 ******
 *********//devices//*********

 ****** transient analysis tnom=  25.000 temp=  25.000 ******
 gain=   failed  from=   failed     to=   failed

          ***** job concluded
 ******  
 *********//devices//*********

 ****** job statistics summary tnom=  25.000 temp=  25.000 ******

  ******  HSPICE Threads Information  ******

  Command Line Threads Count :     4
  Available CPU Count        :    16
  Actual Threads Count       :     1


  ******  Circuit Statistics  ******
  # nodes       =      19 # elements   =      31
  # resistors   =       9 # capacitors =       0 # inductors   =       0
  # mutual_inds =       0 # vccs       =       0 # vcvs        =       1
  # cccs        =       0 # ccvs       =       0 # volt_srcs   =       3
  # curr_srcs   =       0 # diodes     =       0 # bjts        =       0
  # jfets       =       0 # mosfets    =      18 # U elements  =       0
  # T elements  =       0 # W elements =       0 # B elements  =       0
  # S elements  =       0 # P elements =       0 # va device   =       0
  # vector_srcs =       0 # N elements =       0


  ******  Runtime Statistics (seconds)  ******

  analysis           time    # points   tot. iter  conv.iter
  op point           0.30           1       15772
  ac analysis        0.01        1301        1301
  transient          0.04 1.00000E+09        4484        1735 rev=       287
  readin             0.01
  errchk             0.00
  setup              0.00
  output             0.00


           peak memory used         69.89 megabytes
           total cpu time            0.36 seconds
           total elapsed time        0.39 seconds
           job started at     20:21:35 02/01/2023
           job ended   at     20:21:35 02/01/2023
           job total runtime         0.39 seconds


  lic: Release hspice token(s) 
 lic: total license checkout elapse time:        0.02(s)
